  can0  RX - -  18FEF147   [8]  FF 00 00 FF FF FF FF FF   '........'
  can0  RX - -  18F00503   [8]  7D FF FF FF FF FF FF FF   '}.......'
  can0  RX - -  0CF00300   [8]  FF 00 00 FF 0C FF FF FF   '........'
  can0  RX - -  0CEFFF00   [8]  64 06 00 7D FF FF FF FF   'd..}....'
  can0  RX - -  18FEF200   [8]  00 00 FF FF FF FF FF FF   '........'
  can0  RX - -  0CF00400   [8]  F0 FF 7D 00 00 FF FF FF   '..}.....'
  can0  RX - -  0DEF0603   [8]  01 01 FF FF FF FF FF F5   '........'
  can0  RX - -  04EF0006   [8]  64 15 16 F0 00 00 17 0F   'd.......'
  can0  RX - -  0CF00300   [8]  FF 00 00 FF 0C FF FF FF   '........'
  can0  RX - -  0CEFFF00   [8]  64 06 00 7D FF FF FF FF   'd..}....'
  can0  RX - -  18EF0600   [8]  64 0E C7 00 FF FF FF FF   'd.......'
  can0  RX - -  0CF00400   [8]  F0 FF 7D 00 00 FF FF FF   '..}.....'
  can0  RX - -  0DEF0647   [8]  01 04 FF FF FF FF FF F1   '........'
  can0  RX - -  0DEF0603   [8]  01 01 FF FF FF FF FF F5   '........'
  can0  RX - -  04EF0006   [8]  64 15 17 F0 00 00 17 0F   'd.......'
  can0  RX - -  0CFFFE06   [8]  5C 2F 1E 2F 1E FF FF FF   '\/./....'
  can0  RX - -  18FFFF06   [8]  73 FF FF FF FF FF FF FF   's.......'
  can0  RX - -  0CF00300   [8]  FF 00 00 FF 0C FF FF FF   '........'
  can0  RX - -  0CEFFF00   [8]  64 06 00 7D FF FF FF FF   'd..}....'
  can0  RX - -  18EFFF00   [8]  64 10 0B 0B 20 03 00 7D   'd... ..}'
  can0  RX - -  18FEF600   [8]  FF 00 48 FF 00 FF FF FF   '..H.....'
  can0  RX - -  0CF00400   [8]  F0 FF 7D 00 00 FF FF FF   '..}.....'
  can0  RX - -  0DEF0603   [8]  01 01 FF FF FF FF FF F5   '........'
  can0  RX - -  04EF0006   [8]  64 15 18 F0 00 00 17 0F   'd.......'
  can0  RX - -  0CF00300   [8]  FF 00 00 FF 0C FF FF FF   '........'
  can0  RX - -  0CEFFF00   [8]  64 06 00 7D FF FF FF FF   'd..}....'
  can0  RX - -  0CF00400   [8]  F0 FF 7D 00 00 FF FF FF   '..}.....'
  can0  RX - -  0DEF0603   [8]  01 01 FF FF FF FF FF F5   '........'
  can0  RX - -  04EF0006   [8]  64 15 19 F0 00 00 17 0F   'd.......'
  can0  RX - -  0CFE4947   [8]  FF FF FF FF FF FF FF FF   '........'
  can0  RX - -  1CFDDF47   [8]  FC FF FF FF FF FF FF FF   '........'
  can0  RX - -  0CFE4347   [8]  00 00 FF FF 3F FF FF FF   '....?...'
  can0  RX - -  0CFE4447   [8]  00 00 FF FF 3F FF FF FF   '....?...'
  can0  RX - -  0CF00300   [8]  FF 00 00 FF 0C FF FF FF   '........'
  can0  RX - -  0CEFFF00   [8]  64 06 00 7D FF FF FF FF   'd..}....'
  can0  RX - -  0CF00400   [8]  F0 FF 7D 00 00 FF FF FF   '..}.....'
  can0  RX - -  18FFFA00   [8]  02 2C 00 00 28 0C 00 A5   '.,..(...'
  can0  RX - -  0DEF0603   [8]  01 01 FF FF FF FF FF F5   '........'
  can0  RX - -  04EF0006   [8]  64 15 1A F0 00 00 17 0F   'd.......'
  can0  RX - -  0CF00300   [8]  FF 00 00 FF 0C FF FF FF   '........'
  can0  RX - -  0CEFFF00   [8]  64 06 00 7D FF FF FF FF   'd..}....'
  can0  RX - -  18FEF200   [8]  00 00 FF FF FF FF FF FF   '........'
  can0  RX - -  0CF00400   [8]  F0 FF 7D 00 00 FF FF FF   '..}.....'
  can0  RX - -  0DEF0603   [8]  01 01 FF FF FF FF FF F5   '........'
  can0  RX - -  04EF0006   [8]  64 15 1B F0 00 00 17 0F   'd.......'
  can0  RX - -  18FEF147   [8]  FF 00 00 FF FF FF FF FF   '........'
  can0  RX - -  18F00647   [8]  FF CF FF FF FF FF FF FF   '........'
  can0  RX - -  18F00503   [8]  7D FF FF FF FF FF FF FF   '}.......'
  can0  RX - -  0CF00300   [8]  FF 00 00 FF 0C FF FF FF   '........'
  can0  RX - -  0CEFFF00   [8]  64 06 00 7D FF FF FF FF   'd..}....'
  can0  RX - -  18EF0600   [8]  64 0E D1 00 FF FF FF FF   'd.......'
  can0  RX - -  18FEF500   [8]  C7 FF FF FF FF 43 FF FF   '.....C..'
  can0  RX - -  0CF00400   [8]  F0 FF 7D 00 00 FF FF FF   '..}.....'
  can0  RX - -  0DEF0647   [8]  01 04 FF FF FF FF FF F1   '........'
  can0  RX - -  0DEF0603   [8]  01 01 FF FF FF FF FF F5   '........'
  can0  RX - -  04EF0006   [8]  64 15 1C F0 00 00 17 0F   'd.......'
  can0  RX - -  0CF00300   [8]  FF 00 00 FF 0C FF FF FF   '........'
  can0  RX - -  0CEFFF00   [8]  64 06 00 7D FF FF FF FF   'd..}....'
  can0  RX - -  18EFFF00   [8]  64 10 0B 0B 20 03 00 7D   'd... ..}'
  can0  RX - -  0CF00400   [8]  F0 FF 7D 00 00 FF FF FF   '..}.....'
  can0  RX - -  0DEF0603   [8]  01 01 FF FF FF FF FF F5   '........'
  can0  RX - -  04EF0006   [8]  64 15 1D F0 00 00 17 0F   'd.......'
  can0  RX - -  0CFE4947   [8]  FF FF FF FF FF FF FF FF   '........'
  can0  RX - -  0CFE4347   [8]  00 00 FF FF 3F FF FF FF   '....?...'
  can0  RX - -  0CFE4447   [8]  00 00 FF FF 3F FF FF FF   '....?...'
  can0  RX - -  0CFFFE06   [8]  5C 2F 1E 2F 1E FF FF FF   '\/./....'
  can0  RX - -  0CF00300   [8]  FF 00 00 FF 0C FF FF FF   '........'
  can0  RX - -  0CEFFF00   [8]  64 06 00 7D FF FF FF FF   'd..}....'
  can0  RX - -  18FE6900   [8]  2C 26 8E 29 FF FF 60 FE   ',&.)..`.'
  can0  RX - -  0CF00400   [8]  F0 FF 7D 00 00 FF FF FF   '..}.....'
  can0  RX - -  0DEF0603   [8]  01 01 FF FF FF FF FF F5   '........'
  can0  RX - -  04EF0006   [8]  64 15 1E F0 00 00 17 0F   'd.......'
  can0  RX - -  0CF00300   [8]  FF 00 00 FF 0C FF FF FF   '........'
  can0  RX - -  0CEFFF00   [8]  64 06 00 7D FF FF FF FF   'd..}....'
  can0  RX - -  0CF00400   [8]  F0 FF 7D 00 00 FF FF FF   '..}.....'
  can0  RX - -  18FEDF00   [8]  7D 2E 1E FF FF FF FF FF   '}.......'
  can0  RX - -  0DEF0603   [8]  01 01 FF FF FF FF FF F5   '........'
  can0  RX - -  04EF0006   [8]  64 15 1F F0 00 00 17 0F   'd.......'
  can0  RX - -  18FEF147   [8]  FF 00 00 FF FF FF FF FF   '........'
  can0  RX - -  18F00503   [8]  7D FF FF FF FF FF FF FF   '}.......'
  can0  RX - -  0CF00300   [8]  FF 00 00 FF 0C FF FF FF   '........'
  can0  RX - -  0CEFFF00   [8]  64 06 00 7D FF FF FF FF   'd..}....'
  can0  RX - -  18FEF200   [8]  00 00 FF FF FF FF FF FF   '........'
  can0  RX - -  0CF00400   [8]  F0 FF 7D 00 00 FF FF FF   '..}.....'
  can0  RX - -  0DEF0603   [8]  01 01 FF FF FF FF FF F5   '........'
  can0  RX - -  04EF0006   [8]  64 15 10 F0 00 00 17 0F   'd.......'
  can0  RX - -  0CF00300   [8]  FF 00 00 FF 0C FF FF FF   '........'
  can0  RX - -  0CEFFF00   [8]  64 06 00 7D FF FF FF FF   'd..}....'
  can0  RX - -  18EF0600   [8]  64 0E DB 00 FF FF FF FF   'd.......'
  can0  RX - -  0CF00400   [8]  F0 FF 7D 00 00 FF FF FF   '..}.....'
  can0  RX - -  0DEF0647   [8]  01 04 FF FF FF FF FF F1   '........'
  can0  RX - -  0DEF0603   [8]  01 01 FF FF FF FF FF F5   '........'
  can0  RX - -  04EF0006   [8]  64 15 11 F0 00 00 17 0F   'd.......'
  can0  RX - -  0CFFFE06   [8]  5C 2F 1E 2F 1E FF FF FF   '\/./....'
  can0  RX - -  0CF00300   [8]  FF 00 00 FF 0C FF FF FF   '........'
  can0  RX - -  0CEFFF00   [8]  64 06 00 7D FF FF FF FF   'd..}....'
  can0  RX - -  18EFFF00   [8]  64 10 0B 0B 20 03 00 7D   'd... ..}'
  can0  RX - -  0CF00400   [8]  F0 FF 7D 00 00 FF FF FF   '..}.....'
  can0  RX - -  0DEF0603   [8]  01 01 FF FF FF FF FF F5   '........'
  can0  RX - -  04EF0006   [8]  64 15 12 F0 00 00 17 0F   'd.......'
  can0  RX - -  0CF00300   [8]  FF 00 00 FF 0C FF FF FF   '........'
  can0  RX - -  0CEFFF00   [8]  64 06 00 7D FF FF FF FF   'd..}....'
  can0  RX - -  0CF00400   [8]  F0 FF 7D 00 00 FF FF FF   '..}.....'
  can0  RX - -  0DEF0603   [8]  01 01 FF FF FF FF FF F5   '........'
  can0  RX - -  04EF0006   [8]  64 15 13 F0 00 00 17 0F   'd.......'
  can0  RX - -  0CFE4947   [8]  FF FF FF FF FF FF FF FF   '........'
  can0  RX - -  0CFE4347   [8]  00 00 FF FF 3F FF FF FF   '....?...'
  can0  RX - -  0CFE4447   [8]  00 00 FF FF 3F FF FF FF   '....?...'
  can0  RX - -  0CF00300   [8]  FF 00 00 FF 0C FF FF FF   '........'
  can0  RX - -  0CEFFF00   [8]  64 06 00 7D FF FF FF FF   'd..}....'
  can0  RX - -  18FD7C00   [8]  F8 80 F1 F0 00 CF 03 FC   '........'
  can0  RX - -  0CF00400   [8]  F0 FF 7D 00 00 FF FF FF   '..}.....'
  can0  RX - -  0DEF0603   [8]  01 01 FF FF FF FF FF F5   '........'
  can0  RX - -  04EF0006   [8]  64 15 14 F0 00 00 17 0F   'd.......'
  can0  RX - -  0CF00300   [8]  FF 00 00 FF 0C FF FF FF   '........'
  can0  RX - -  0CEFFF00   [8]  64 06 00 7D FF FF FF FF   'd..}....'
  can0  RX - -  18FEF200   [8]  00 00 FF FF FF FF FF FF   '........'
  can0  RX - -  0CF00400   [8]  F0 FF 7D 00 00 FF FF FF   '..}.....'
  can0  RX - -  0DEF0603   [8]  01 01 FF FF FF FF FF F5   '........'
  can0  RX - -  04EF0006   [8]  64 15 15 F0 00 00 17 0F   'd.......'
  can0  RX - -  18FEF147   [8]  FF 00 00 FF FF FF FF FF   '........'
  can0  RX - -  18F00503   [8]  7D FF FF FF FF FF FF FF   '}.......'
  can0  RX - -  0CF00300   [8]  FF 00 00 FF 0C FF FF FF   '........'
  can0  RX - -  0CEFFF00   [8]  64 06 00 7D FF FF FF FF   'd..}....'
  can0  RX - -  18EF0600   [8]  64 0E E5 00 FF FF FF FF   'd.......'
  can0  RX - -  0CF00400   [8]  F0 FF 7D 00 00 FF FF FF   '..}.....'
  can0  RX - -  0DEF0647   [8]  01 04 FF FF FF FF FF F1   '........'
  can0  RX - -  0DEF0603   [8]  01 01 FF FF FF FF FF F5   '........'
  can0  RX - -  04EF0006   [8]  64 15 16 F0 00 00 17 0F   'd.......'
  can0  RX - -  0CF00300   [8]  FF 00 00 FF 0C FF FF FF   '........'
  can0  RX - -  0CEFFF00   [8]  64 06 00 7D FF FF FF FF   'd..}....'
  can0  RX - -  18EFFF00   [8]  64 10 0B 0B 20 03 00 7D   'd... ..}'
  can0  RX - -  0CF00400   [8]  F0 FF 7D 00 00 FF FF FF   '..}.....'
  can0  RX - -  0DEF0603   [8]  01 01 FF FF FF FF FF F5   '........'
  can0  RX - -  04EF0006   [8]  64 15 17 F0 00 00 17 0F   'd.......'
  can0  RX - -  0CFE4947   [8]  FF FF FF FF FF FF FF FF   '........'
  can0  RX - -  0CFE4347   [8]  00 00 FF FF 3F FF FF FF   '....?...'
  can0  RX - -  0CFE4447   [8]  00 00 FF FF 3F FF FF FF   '....?...'
  can0  RX - -  0CFFFE06   [8]  5C 2F 1E 2F 1E FF FF FF   '\/./....'
  can0  RX - -  0CF00300   [8]  FF 00 00 FF 0C FF FF FF   '........'
  can0  RX - -  0CEFFF00   [8]  64 06 00 7D FF FF FF FF   'd..}....'
  can0  RX - -  1CFFFF17   [8]  22 FF FF 3C FF FF FF FF   '"..<....'
  can0  RX - -  0CF00400   [8]  F0 FF 7D 00 00 FF FF FF   '..}.....'
  can0  RX - -  0DEF0603   [8]  01 01 FF FF FF FF FF F5   '........'
  can0  RX - -  04EF0006   [8]  64 15 18 F0 00 00 17 0F   'd.......'
  can0  RX - -  0CF00300   [8]  FF 00 00 FF 0C FF FF FF   '........'
  can0  RX - -  0CEFFF00   [8]  64 06 00 7D FF FF FF FF   'd..}....'
  can0  RX - -  18FDB300   [8]  FF FF C8 2B FF FF FF FF   '...+....'
  can0  RX - -  1CEFFF00   [8]  64 07 00 00 FF FF FF FF   'd.......'
  can0  RX - -  0CF00400   [8]  F0 FF 7D 00 00 FF FF FF   '..}.....'
  can0  RX - -  0DEF0603   [8]  01 01 FF FF FF FF FF F5   '........'
  can0  RX - -  04EF0006   [8]  64 15 19 F0 00 00 17 0F   'd.......'
  can0  RX - -  18FEF147   [8]  FF 00 00 FF FF FF FF FF   '........'
  can0  RX - -  18F00503   [8]  7D FF FF FF FF FF FF FF   '}.......'
  can0  RX - -  0CF00300   [8]  FF 00 00 FF 0C FF FF FF   '........'
  can0  RX - -  0CEFFF00   [8]  64 06 00 7D FF FF FF FF   'd..}....'
  can0  RX - -  18FEF200   [8]  00 00 FF FF FF FF FF FF   '........'
  can0  RX - -  0CF00400   [8]  F0 FF 7D 00 00 FF FF FF   '..}.....'
  can0  RX - -  0DEF0603   [8]  01 01 FF FF FF FF FF F5   '........'
  can0  RX - -  04EF0006   [8]  64 15 1A F0 00 00 17 0F   'd.......'
  can0  RX - -  0CF00300   [8]  FF 00 00 FF 0C FF FF FF   '........'
  can0  RX - -  0CEFFF00   [8]  64 06 00 7D FF FF FF FF   'd..}....'
  can0  RX - -  18EF0600   [8]  64 0E EF 00 FF FF FF FF   'd.......'
  can0  RX - -  0CF00400   [8]  F0 FF 7D 00 00 FF FF FF   '..}.....'
  can0  RX - -  0DEF0647   [8]  01 04 FF FF FF FF FF F1   '........'
  can0  RX - -  0DEF0603   [8]  01 01 FF FF FF FF FF F5   '........'
  can0  RX - -  04EF0006   [8]  64 15 1B F0 00 00 17 0F   'd.......'
  can0  RX - -  0CFFFE06   [8]  5C 2F 1E 2F 1E FF FF FF   '\/./....'
  can0  RX - -  0CF00300   [8]  FF 00 00 FF 0C FF FF FF   '........'
  can0  RX - -  0CEFFF00   [8]  64 06 00 7D FF FF FF FF   'd..}....'
  can0  RX - -  18EFFF00   [8]  64 10 0B 0B 20 03 00 7D   'd... ..}'
  can0  RX - -  18FEDF00   [8]  7D 2E 1E FF FF FF FF FF   '}.......'
  can0  RX - -  0CF00400   [8]  F0 FF 7D 00 00 FF FF FF   '..}.....'
  can0  RX - -  0DEF0603   [8]  01 01 FF FF FF FF FF F5   '........'
  can0  RX - -  04EF0006   [8]  64 15 1C F0 00 00 17 0F   'd.......'
  can0  RX - -  0CF00300   [8]  FF 00 00 FF 0C FF FF FF   '........'
  can0  RX - -  0CEFFF00   [8]  64 06 00 7D FF FF FF FF   'd..}....'
  can0  RX - -  18FEEF00   [8]  FF FF FF 00 FF FF FF FA   '........'
  can0  RX - -  0CF00400   [8]  F0 FF 7D 00 00 FF FF FF   '..}.....'
  can0  RX - -  0DEF0603   [8]  01 01 FF FF FF FF FF F5   '........'
  can0  RX - -  04EF0006   [8]  64 15 1D F0 00 00 17 0F   'd.......'
  can0  RX - -  0CFE4947   [8]  FF FF FF FF FF FF FF FF   '........'
  can0  RX - -  0CFFFF47   [8]  5D FF FF F3 FF FF FF FF   '].......'
  can0  RX - -  0CFE4347   [8]  00 00 FF FF 3F FF FF FF   '....?...'
  can0  RX - -  0CFE4447   [8]  00 00 FF FF 3F FF FF FF   '....?...'
  can0  RX - -  0CF00300   [8]  FF 00 00 FF 0C FF FF FF   '........'
  can0  RX - -  0CEFFF00   [8]  64 06 00 7D FF FF FF FF   'd..}....'
  can0  RX - -  0CF00400   [8]  F0 FF 7D 00 00 FF FF FF   '..}.....'
  can0  RX - -  0DEF0603   [8]  01 01 FF FF FF FF FF F5   '........'
  can0  RX - -  04EF0006   [8]  64 15 1E F0 00 00 17 0F   'd.......'
  can0  RX - -  0CF00300   [8]  FF 00 00 FF 0C FF FF FF   '........'
  can0  RX - -  0CEFFF00   [8]  64 06 00 7D FF FF FF FF   'd..}....'
  can0  RX - -  18FEF200   [8]  00 00 FF FF FF FF FF FF   '........'
  can0  RX - -  0CF00400   [8]  F0 FF 7D 00 00 FF FF FF   '..}.....'
  can0  RX - -  0DEF0603   [8]  01 01 FF FF FF FF FF F5   '........'
  can0  RX - -  04EF0006   [8]  64 15 1F F0 00 00 17 0F   'd.......'
  can0  RX - -  18FEF147   [8]  FF 00 00 FF FF FF FF FF   '........'
  can0  RX - -  18FFFB06   [8]  00 1B FF FF FF FF FF FF   '........'
  can0  RX - -  18F00503   [8]  7D FF FF FF FF FF FF FF   '}.......'
  can0  RX - -  0CF00300   [8]  FF 00 00 FF 0C FF FF FF   '........'
  can0  RX - -  0CEFFF00   [8]  64 06 00 7D FF FF FF FF   'd..}....'
  can0  RX - -  18EF0600   [8]  64 0E F9 00 FF FF FF FF   'd.......'
  can0  RX - -  0CF00400   [8]  F0 FF 7D 00 00 FF FF FF   '..}.....'
  can0  RX - -  0DEF0647   [8]  01 04 FF FF FF FF FF F1   '........'
  can0  RX - -  0DEF0603   [8]  01 01 FF FF FF FF FF F5   '........'
  can0  RX - -  04EF0006   [8]  64 15 10 F0 00 00 17 0F   'd.......'
  can0  RX - -  0CF00300   [8]  FF 00 00 FF 0C FF FF FF   '........'
  can0  RX - -  0CEFFF00   [8]  64 06 00 7D FF FF FF FF   'd..}....'
  can0  RX - -  18EFFF00   [8]  64 10 0B 0B 20 03 00 7D   'd... ..}'
  can0  RX - -  18FEF600   [8]  FF 00 48 FF 00 FF FF FF   '..H.....'
  can0  RX - -  0CF00400   [8]  F0 FF 7D 00 00 FF FF FF   '..}.....'
  can0  RX - -  0DEF0603   [8]  01 01 FF FF FF FF FF F5   '........'
  can0  RX - -  04EF0006   [8]  64 15 11 F0 00 00 17 0F   'd.......'
  can0  RX - -  0CFE4947   [8]  FF FF FF FF FF FF FF FF   '........'
  can0  RX - -  18FE6847   [8]  35 FF FF FF FF FF FF FF   '5.......'
  can0  RX - -  0CFE4347   [8]  00 00 FF FF 3F FF FF FF   '....?...'
  can0  RX - -  18FFFF06   [8]  73 FF FF FF FF FF FF FF   's.......'
  can0  RX - -  0CFE4447   [8]  00 00 FF FF 3F FF FF FF   '....?...'
  can0  RX - -  0CFFFE06   [8]  5C 2F 1E 2F 1E FF FF FF   '\/./....'
  can0  RX - -  18EFFA00   [8]  64 01 FF 00 00 FF FF FF   'd.......'
  can0  RX - -  0CEFFF00   [8]  64 06 00 7D FF FF FF FF   'd..}....'
  can0  RX - -  0CF00300   [8]  FF 00 00 FF 0C FF FF FF   '........'
  can0  RX - -  0CF00400   [8]  F0 FF 7D 00 00 FF FF FF   '..}.....'
  can0  RX - -  0DEF0603   [8]  01 01 FF FF FF FF FF F5   '........'
  can0  RX - -  04EF0006   [8]  64 15 12 F0 00 00 17 0F   'd.......'
  can0  RX - -  0CF00300   [8]  FF 00 00 FF 0C FF FF FF   '........'
  can0  RX - -  0CEFFF00   [8]  64 06 00 7D FF FF FF FF   'd..}....'
  can0  RX - -  0CF00400   [8]  F0 FF 7D 00 00 FF FF FF   '..}.....'
  can0  RX - -  0DEF0603   [8]  01 01 FF FF FF FF FF F5   '........'
  can0  RX - -  04EF0006   [8]  64 15 13 F0 00 00 17 0F   'd.......'
  can0  RX - -  0CFFFF47   [8]  5E FF FF FF FF FF FF FF   '^.......'
  can0  RX - -  18FEF147   [8]  FF 00 00 FF FF FF FF FF   '........'
  can0  RX - -  18FEFC47   [8]  FF FF FF FF FF FF FF FF   '........'
  can0  RX - -  18EF0047   [8]  F2 20 61 0F FF FF FF FF   '. a.....'
  can0  RX - -  18F00647   [8]  FF CF FF FF FF FF FF FF   '........'
  can0  RX - -  1CFDDF47   [8]  FC FF FF FF FF FF FF FF   '........'
  can0  RX - -  18F00503   [8]  7D FF FF FF FF FF FF FF   '}.......'
  can0  RX - -  0CF00300   [8]  FF 00 00 FF 0C FF FF FF   '........'
  can0  RX - -  0CEFFF00   [8]  64 06 00 7D FF FF FF FF   'd..}....'
  can0  RX - -  18FEF200   [8]  00 00 FF FF FF FF FF FF   '........'
  can0  RX - -  0CF00400   [8]  F0 FF 7D 00 00 FF FF FF   '..}.....'
  can0  RX - -  0DEF0603   [8]  01 01 FF FF FF FF FF F5   '........'
  can0  RX - -  04EF0006   [8]  64 15 14 F0 00 00 17 0F   'd.......'
  can0  RX - -  0C000006   [8]  30 FF FF FF F8 FF FF FF   '0.......'
  can0  RX - -  0CF00300   [8]  FF 00 00 FF 0C FF FF FF   '........'
  can0  RX - -  0CEFFF00   [8]  64 06 00 7D FF FF FF FF   'd..}....'
  can0  RX - -  18EF0600   [8]  64 0E 03 00 FF FF FF FF   'd.......'
  can0  RX - -  0CF00400   [8]  F0 FF 7D 00 00 FF FF FF   '..}.....'
  can0  RX - -  0DEF0647   [8]  01 04 FF FF FF FF FF F1   '........'
  can0  RX - -  0DEF0603   [8]  01 01 FF FF FF FF FF F5   '........'
  can0  RX - -  04EF0006   [8]  64 15 15 F0 00 00 17 0F   'd.......'
  can0  RX - -  0CFFFE06   [8]  5C 2F 1E 2F 1E FF FF FF   '\/./....'
  can0  RX - -  18FFFB06   [8]  00 05 7D F8 FF FF FF FF   '..}.....'
  can0  RX - -  0CF00300   [8]  FF 00 00 FF 0C FF FF FF   '........'
  can0  RX - -  0CEFFF00   [8]  64 06 00 7D FF FF FF FF   'd..}....'
  can0  RX - -  18EFFF00   [8]  64 10 0B 0B 20 03 00 7D   'd... ..}'
  can0  RX - -  0CF00400   [8]  F0 FF 7D 00 00 FF FF FF   '..}.....'
  can0  RX - -  0DEF0603   [8]  01 01 FF FF FF FF FF F5   '........'
  can0  RX - -  04EF0006   [8]  64 15 16 F0 00 00 17 0F   'd.......'
  can0  RX - -  0CF00300   [8]  FF 00 00 FF 0C FF FF FF   '........'
  can0  RX - -  0CEFFF00   [8]  64 06 00 7D FF FF FF FF   'd..}....'
  can0  RX - -  18FEEE00   [8]  63 4B FF FF FF FF FF FF   'cK......'
  can0  RX - -  0CF00400   [8]  F0 FF 7D 00 00 FF FF FF   '..}.....'
  can0  RX - -  0DEF0603   [8]  01 01 FF FF FF FF FF F5   '........'
  can0  RX - -  04EF0006   [8]  64 15 17 F0 00 00 17 0F   'd.......'
  can0  RX - -  0CFE4947   [8]  FF FF FF FF FF FF FF FF   '........'
  can0  RX - -  0CFE4347   [8]  00 00 FF FF 3F FF FF FF   '....?...'
  can0  RX - -  0CFE4447   [8]  00 00 FF FF 3F FF FF FF   '....?...'
  can0  RX - -  0CF00300   [8]  FF 00 00 FF 0C FF FF FF   '........'
  can0  RX - -  0CEFFF00   [8]  64 06 00 7D FF FF FF FF   'd..}....'
  can0  RX - -  0CF00400   [8]  F0 FF 7D 00 00 FF FF FF   '..}.....'
  can0  RX - -  18FEDF00   [8]  7D 2E 1E FF FF FF FF FF   '}.......'
  can0  RX - -  0DEF0603   [8]  01 01 FF FF FF FF FF F5   '........'
  can0  RX - -  04EF0006   [8]  64 15 18 F0 00 00 17 0F   'd.......'
  can0  RX - -  0CF00300   [8]  FF 00 00 FF 0C FF FF FF   '........'
  can0  RX - -  0CEFFF00   [8]  64 06 00 7D FF FF FF FF   'd..}....'
  can0  RX - -  18FEF200   [8]  00 00 FF FF FF FF FF FF   '........'
  can0  RX - -  0CF00400   [8]  F0 FF 7D 00 00 FF FF FF   '..}.....'
  can0  RX - -  0DEF0603   [8]  01 01 FF FF FF FF FF F5   '........'
  can0  RX - -  04EF0006   [8]  64 15 19 F0 00 00 17 0F   'd.......'
  can0  RX - -  18FEF147   [8]  FF 00 00 FF FF FF FF FF   '........'
  can0  RX - -  18F00503   [8]  7D FF FF FF FF FF FF FF   '}.......'
  can0  RX - -  0CF00300   [8]  FF 00 00 FF 0C FF FF FF   '........'
  can0  RX - -  0CEFFF00   [8]  64 06 00 7D FF FF FF FF   'd..}....'
  can0  RX - -  18EF0600   [8]  64 0E 0D 00 FF FF FF FF   'd.......'
  can0  RX - -  0CF00400   [8]  F0 FF 7D 00 00 FF FF FF   '..}.....'
  can0  RX - -  0DEF0647   [8]  01 04 FF FF FF FF FF F1   '........'
  can0  RX - -  0DEF0603   [8]  01 01 FF FF FF FF FF F5   '........'
  can0  RX - -  04EF0006   [8]  64 15 1A F0 00 00 17 0F   'd.......'
  can0  RX - -  0CF00300   [8]  FF 00 00 FF 0C FF FF FF   '........'
  can0  RX - -  0CEFFF00   [8]  64 06 00 7D FF FF FF FF   'd..}....'
  can0  RX - -  18EFFF00   [8]  64 10 0B 0B 20 03 00 7D   'd... ..}'
  can0  RX - -  18FEF700   [8]  FF FF FF FF FF FF F5 00   '........'
  can0  RX - -  0CF00400   [8]  F0 FF 7D 00 00 FF FF FF   '..}.....'
  can0  RX - -  0DEF0603   [8]  01 01 FF FF FF FF FF F5   '........'
  can0  RX - -  04EF0006   [8]  64 15 1B F0 00 00 17 0F   'd.......'
  can0  RX - -  0CFE4947   [8]  FF FF FF FF FF FF FF FF   '........'
  can0  RX - -  0CFE4347   [8]  00 00 FF FF 3F FF FF FF   '....?...'
  can0  RX - -  0CFE4447   [8]  00 00 FF FF 3F FF FF FF   '....?...'
  can0  RX - -  0CFFFE06   [8]  5C 2F 1E 2F 1E FF FF FF   '\/./....'
  can0  RX - -  0CF00300   [8]  FF 00 00 FF 0C FF FF FF   '........'
  can0  RX - -  0CEFFF00   [8]  64 06 00 7D FF FF FF FF   'd..}....'
  can0  RX - -  0CF00400   [8]  F0 FF 7D 00 00 FF FF FF   '..}.....'
  can0  RX - -  0DEF0603   [8]  01 01 FF FF FF FF FF F5   '........'
  can0  RX - -  04EF0006   [8]  64 15 1C F0 00 00 17 0F   'd.......'
  can0  RX - -  0CF00300   [8]  FF 00 00 FF 0C FF FF FF   '........'
  can0  RX - -  0CEFFF00   [8]  64 06 00 7D FF FF FF FF   'd..}....'
  can0  RX - -  0CF00400   [8]  F0 FF 7D 00 00 FF FF FF   '..}.....'
  can0  RX - -  0DEF0603   [8]  01 01 FF FF FF FF FF F5   '........'
  can0  RX - -  04EF0006   [8]  64 15 1D F0 00 00 17 0F   'd.......'
  can0  RX - -  18FEF147   [8]  FF 00 00 FF FF FF FF FF   '........'
  can0  RX - -  18F00503   [8]  7D FF FF FF FF FF FF FF   '}.......'
  can0  RX - -  0CF00300   [8]  FF 00 00 FF 0C FF FF FF   '........'
  can0  RX - -  0CEFFF00   [8]  64 06 00 7D FF FF FF FF   'd..}....'
  can0  RX - -  18FEF200   [8]  00 00 FF FF FF FF FF FF   '........'
  can0  RX - -  0CF00400   [8]  F0 FF 7D 00 00 FF FF FF   '..}.....'
  can0  RX - -  0DEF0603   [8]  01 01 FF FF FF FF FF F5   '........'
  can0  RX - -  04EF0006   [8]  64 15 1E F0 00 00 17 0F   'd.......'
  can0  RX - -  0CF00300   [8]  FF 00 00 FF 0C FF FF FF   '........'
  can0  RX - -  0CEFFF00   [8]  64 06 00 7D FF FF FF FF   'd..}....'
  can0  RX - -  18EF0600   [8]  64 0E 17 00 FF FF FF FF   'd.......'
  can0  RX - -  0CF00400   [8]  F0 FF 7D 00 00 FF FF FF   '..}.....'
  can0  RX - -  0DEF0647   [8]  01 04 FF FF FF FF FF F1   '........'
  can0  RX - -  0DEF0603   [8]  01 01 FF FF FF FF FF F5   '........'
  can0  RX - -  04EF0006   [8]  64 15 1F F0 00 00 17 0F   'd.......'
  can0  RX - -  0CFFFE06   [8]  5C 2F 1E 2F 1E FF FF FF   '\/./....'
  can0  RX - -  0CF00300   [8]  FF 00 00 FF 0C FF FF FF   '........'
  can0  RX - -  0CEFFF00   [8]  64 06 00 7D FF FF FF FF   'd..}....'
  can0  RX - -  18EFFF00   [8]  64 10 0B 0B 20 03 00 7D   'd... ..}'
  can0  RX - -  18FED500   [8]  FF FF FC FF FF FF FF FF   '........'
  can0  RX - -  0CF00400   [8]  F0 FF 7D 00 00 FF FF FF   '..}.....'
  can0  RX - -  0DEF0603   [8]  01 01 FF FF FF FF FF F5   '........'
  can0  RX - -  04EF0006   [8]  64 15 10 F0 00 00 17 0F   'd.......'
  can0  RX - -  0CF00300   [8]  FF 00 00 FF 0C FF FF FF   '........'
  can0  RX - -  0CEFFF00   [8]  64 06 00 7D FF FF FF FF   'd..}....'
  can0  RX - -  0CF00400   [8]  F0 FF 7D 00 00 FF FF FF   '..}.....'
  can0  RX - -  0DEF0603   [8]  01 01 FF FF FF FF FF F5   '........'
  can0  RX - -  04EF0006   [8]  64 15 11 F0 00 00 17 0F   'd.......'
  can0  RX - -  0CFE4947   [8]  FF FF FF FF FF FF FF FF   '........'
  can0  RX - -  0CFE4347   [8]  00 00 FF FF 3F FF FF FF   '....?...'
  can0  RX - -  0CFE4447   [8]  00 00 FF FF 3F FF FF FF   '....?...'
  can0  RX - -  0CF00300   [8]  FF 00 00 FF 0C FF FF FF   '........'
  can0  RX - -  0CEFFF00   [8]  64 06 00 7D FF FF FF FF   'd..}....'
  can0  RX - -  18FDB300   [8]  FF FF C8 2B FF FF FF FF   '...+....'
  can0  RX - -  0CF00400   [8]  F0 FF 7D 00 00 FF FF FF   '..}.....'
  can0  RX - -  0DEF0603   [8]  01 01 FF FF FF FF FF F5   '........'
  can0  RX - -  04EF0006   [8]  64 15 12 F0 00 00 17 0F   'd.......'
  can0  RX - -  0CF00300   [8]  FF 00 00 FF 0C FF FF FF   '........'
  can0  RX - -  0CEFFF00   [8]  64 06 00 7D FF FF FF FF   'd..}....'
  can0  RX - -  18FEF200   [8]  00 00 FF FF FF FF FF FF   '........'
  can0  RX - -  0CF00400   [8]  F0 FF 7D 00 00 FF FF FF   '..}.....'
  can0  RX - -  0DEF0603   [8]  01 01 FF FF FF FF FF F5   '........'
  can0  RX - -  04EF0006   [8]  64 15 13 F0 00 00 17 0F   'd.......'
  can0  RX - -  18FEF147   [8]  FF 00 00 FF FF FF FF FF   '........'
  can0  RX - -  18F00503   [8]  7D FF FF FF FF FF FF FF   '}.......'
  can0  RX - -  0CF00300   [8]  FF 00 00 FF 0C FF FF FF   '........'
  can0  RX - -  0CEFFF00   [8]  64 06 00 7D FF FF FF FF   'd..}....'
  can0  RX - -  18EF0600   [8]  64 0E 21 00 FF FF FF FF   'd.!.....'
  can0  RX - -  0CF00400   [8]  F0 FF 7D 00 00 FF FF FF   '..}.....'
  can0  RX - -  0DEF0647   [8]  01 04 FF FF FF FF FF F1   '........'
  can0  RX - -  0DEF0603   [8]  01 01 FF FF FF FF FF F5   '........'
  can0  RX - -  04EF0006   [8]  64 15 14 F0 00 00 17 0F   'd.......'
